date Wed Apr 05 12:43:01 PM 2023
base hex timestamps absolute
// version 7.0.0
0.000000 2 cf00a00x Rx d 8 00 00 00 00 ff ff ff ff 
0.000600 2 18fef000x Rx d 8 ff ff ff ff ff ff ff ff 
0.001200 2 18f00f00x Rx d 8 00 fb 32 5b ff ff ff ff 
0.002900 2 18ff5080x Rx d 8 01 52 45 0d 00 00 00 44 
0.003500 2 18ff5c80x Rx d 8 32 05 37 00 00 00 00 00 
0.004100 2 18ff5d80x Rx d 8 00 00 b6 03 b6 03 e8 03 
0.004800 2 18ff4a30x Rx d 8 ff ff 00 00 00 00 00 00 
0.005500 2 cf00130x Rx d 8 ff ff ff 00 ff ff ff ff 
0.006100 2 cf00400x Rx d 8 7e e1 85 C0 C2 00 00 7d 
0.009500 2 18fcf200x Rx d 8 fa ff ff ff ff ff ff ff 
0.012900 2 18fefc80x Rx d 8 00 06 00 00 00 00 00 00 
0.013600 2 18ff5c80x Rx d 8 32 05 37 00 00 00 00 00 
0.014200 2 18ff5d80x Rx d 8 00 00 b6 03 b6 03 e8 03 
0.014800 2 18ff4a30x Rx d 8 ff ff 00 00 00 00 00 00 
0.015600 2 cf00130x Rx d 8 ff ff ff 00 ff ff ff ff 
0.016200 2 18fedf00x Rx d 8 86 c0 2b 7d 7d ff ff f0 
0.016800 2 cf00300x Rx d 8 d3 ff 00 ff ff 0f 21 7d 
0.019400 2 18fe5600x Rx d 8 1a 35 ff ff ff ff 00 ff 
0.020000 2 18fef100x Rx d 8 df 00 00 ff ff ff ff cf 
0.022900 2 18ff5180x Rx d 8 50 01 44 00 05 00 00 01 
0.023600 2 18ff4880x Rx d 8 10 00 00 00 00 00 00 00 
0.024200 2 18ff5c80x Rx d 8 32 05 37 00 00 00 00 00 
0.024800 2 18fdb300x Rx d 8 ff ff 40 24 ff ff ff ff 
0.025300 2 18ff5d80x Rx d 8 00 00 b6 03 b6 03 e8 03 
0.026000 2 18fdcb30x Rx d 8 ff 00 00 ff ff ff ff ff 
0.026500 2 cf00400x Rx d 8 7e e1 85 C0 C2 00 00 7d 
0.027100 2 18ff4a30x Rx d 8 ff ff 00 00 00 00 00 00 
0.027700 2 cf00130x Rx d 8 ff ff ff 00 ff ff ff ff 
0.029500 2 18ff3281x Rx d 8 00 00 00 00 00 00 00 00 
0.032900 2 18ff5280x Rx d 8 35 00 00 00 00 f2 01 00 
0.033600 2 18ff5c80x Rx d 8 32 05 37 00 00 00 00 00 
0.034200 2 18ff5d80x Rx d 8 00 00 b6 03 b6 03 e8 03 
0.034800 2 cf00330x Rx d 8 ff 00 ff ff ff ff ff ff 
0.035600 2 18ff4a30x Rx d 8 ff ff 00 00 00 00 00 00 
0.036200 2 18fff700x Rx d 8 a8 fc ff ff ff ff ff ff 
0.036800 2 cf00130x Rx d 8 ff ff ff 00 ff ff ff ff 
0.037300 2 18fedf00x Rx d 8 86 c0 2b 7d 7d ff ff f0 
0.037900 2 cf00300x Rx d 8 d3 ff 00 ff ff 0f 21 7d 
0.039500 2 18fd9b00x Rx d 8 ff 88 ff ff ff f3 ff ff 
0.040100 2 1cfe9200x Rx d 8 ff 9c 4a ff ff ff 00 00 
0.042800 2 18ff5380x Rx d 8 00 00 00 00 00 00 00 00 
0.043600 2 18ff5c80x Rx d 8 32 05 37 00 00 00 00 00 
0.044200 2 18ff5d80x Rx d 8 00 00 b6 03 b6 03 e8 03 
0.044900 2 18ff4a30x Rx d 8 ff ff 00 00 00 00 00 00 
0.045600 2 cf00130x Rx d 8 ff ff ff 00 ff ff ff ff 
0.046200 2 cf00400x Rx d 8 7e e1 85 C0 C2 00 00 7d 
0.049500 2 18fdb200x Rx d 8 ff ff ff ff 01 00 ff ff 
0.050100 2 cf00a00x Rx d 8 00 00 00 00 ff ff ff ff 
0.050700 2 18f00f00x Rx d 8 00 fb 32 5b ff ff ff ff 
0.052800 2 18ff5480x Rx d 8 00 00 00 00 00 00 00 00 
0.053500 2 18ff5c80x Rx d 8 32 05 37 00 00 00 00 00 
0.054100 2 18ff5d80x Rx d 8 00 00 b6 03 b6 03 e8 03 
0.054800 2 18ff4a30x Rx d 8 ff ff 00 00 00 00 00 00 
0.055500 2 cf00130x Rx d 8 ff ff ff 00 ff ff ff ff 
0.056100 2 18fedf00x Rx d 8 86 c0 2b 7d 7d ff ff f0 
0.056700 2 cf00300x Rx d 8 d3 ff 00 ff ff 0f 21 7d 
0.062800 2 18ff5580x Rx d 8 00 00 00 00 00 00 00 00 
0.063600 2 18ff5c80x Rx d 8 32 05 37 00 00 00 00 00 
0.064200 2 18ff5d80x Rx d 8 00 00 b6 03 b6 03 e8 03 
0.064800 2 18fef200x Rx d 8 00 00 ff fa 00 00 fa ff 
0.065400 2 18ff4a30x Rx d 8 ff ff 00 00 00 00 00 00 
0.066000 2 cf00130x Rx d 8 ff ff ff 00 ff ff ff ff 
0.066500 2 cf00400x Rx d 8 7e e1 85 C0 C2 00 00 7d 
0.069500 2 18fd8c00x Rx d 8 00 00 00 00 ff ff ff ff 
0.072800 2 18ff5680x Rx d 8 00 00 00 00 00 00 00 00 
0.073600 2 18ff5c80x Rx d 8 32 05 37 00 00 00 00 00 
0.074200 2 18ff5d80x Rx d 8 00 00 b6 03 b6 03 e8 03 
0.074800 2 18ff4a30x Rx d 8 ff ff 00 00 00 00 00 00 
0.075600 2 cf00130x Rx d 8 ff ff ff 00 ff ff ff ff 
0.076100 2 18fedf00x Rx d 8 86 c0 2b 7d 7d ff ff f0 
0.076700 2 cf00300x Rx d 8 d3 ff 00 ff ff 0f 21 7d 
0.077300 2 10fcfd00x Rx d 8 ff ff ff ff 00 00 ff ff 
0.082800 2 18ff5880x Rx d 8 83 01 83 01 00 00 00 00 
0.083500 2 18ff5c80x Rx d 8 32 05 37 00 00 00 00 00 
0.084100 2 18ff5d80x Rx d 8 00 00 b6 03 b6 03 e8 03 
0.084700 2 18fee000x Rx d 8 00 00 00 00 00 00 00 00 
0.085300 2 cf00330x Rx d 8 ff 00 ff ff ff ff ff ff 
0.085900 2 18f00100x Rx d 8 ff ff ff ff ff ff ff ff 
0.086500 2 18ff4a30x Rx d 8 ff ff 00 00 00 00 00 00 
0.087100 2 cf00400x Rx d 8 7e e1 85 C0 C2 00 00 7d 
0.087600 2 cf00130x Rx d 8 ff ff ff 00 ff ff ff ff 
0.089500 2 18fd2000x Rx d 8 b9 24 06 25 ff ff ff ff 
0.090100 2 18f00029x Rx d 8 ff ff ff ff ff ff ff ff 
0.092800 2 18ff5980x Rx d 8 0a 00 1e 01 4f 00 22 01 
0.093500 2 18ff5c80x Rx d 8 32 05 37 00 00 00 00 00 
0.094200 2 18ff5d80x Rx d 8 00 00 b6 03 b6 03 e8 03 
0.094800 2 18ff4a30x Rx d 8 ff ff 00 00 00 00 00 00 
0.095600 2 cf00130x Rx d 8 ff ff ff 00 ff ff ff ff 
0.096200 2 18fedf00x Rx d 8 86 c0 2b 7d 7d ff ff f0 
0.096700 2 cf00300x Rx d 8 d3 ff 00 ff ff 0f 21 7d 
0.099500 2 cf00a00x Rx d 8 00 00 00 00 ff ff ff ff 
0.100100 2 18fef000x Rx d 8 ff ff ff ff ff ff ff ff 
0.100600 2 18f00f00x Rx d 8 00 fb 32 5b ff ff ff ff 
0.102900 2 18ff5080x Rx d 8 01 52 45 0d 00 00 00 44 
0.103600 2 18ff5c80x Rx d 8 32 05 37 00 00 00 00 00 
0.104200 2 18ff5d80x Rx d 8 00 00 b6 03 b6 03 e8 03 
0.104900 2 18ff4a30x Rx d 8 ff ff 00 00 00 00 00 00 
0.105600 2 cf00130x Rx d 8 ff ff ff 00 ff ff ff ff 
0.106200 2 cf00400x Rx d 8 7e e1 85 C0 C2 00 00 7d 
0.109500 2 18fbcb00x Rx d 8 00 00 00 00 00 00 00 00 
0.110100 2 18fcf200x Rx d 8 fa ff ff ff ff ff ff ff 
0.112900 2 18ff5c80x Rx d 8 32 05 37 00 00 00 00 00 
0.113600 2 18ff5d80x Rx d 8 00 00 b6 03 b6 03 e8 03 
0.114200 2 18ff2180x Rx d 8 48 4c 62 00 00 41 00 00 
0.114900 2 18ff4a30x Rx d 8 ff ff 00 00 00 00 00 00 
0.115600 2 cf00130x Rx d 8 ff ff ff 00 ff ff ff ff 
0.116200 2 14fd3e00x Rx d 8 49 24 ff 2c 24 ff ff ff 
0.116800 2 18fedf00x Rx d 8 86 c0 2b 7d 7d ff ff f0 
0.117300 2 cf00300x Rx d 8 d3 ff 00 ff ff 0f 21 7d 
0.119500 2 18fef100x Rx d 8 df 00 00 ff ff ff ff cf 
0.122900 2 18ff5180x Rx d 8 50 01 44 00 05 00 00 01 
0.123600 2 18ff4980x Rx d 8 00 00 00 00 00 00 00 00 
0.124200 2 18ff5c80x Rx d 8 32 05 37 00 00 00 00 00 
0.124800 2 18ff5d80x Rx d 8 00 00 b6 03 b6 03 e8 03 
0.125600 2 18ff4a30x Rx d 8 ff ff 00 00 00 00 00 00 
0.126200 2 cf00400x Rx d 8 7e e1 85 C0 C2 00 00 7d 
0.126800 2 ce00030x Rx d 8 ff ff ff ff ff f0 ff ff 
0.127400 2 cf00130x Rx d 8 ff ff ff 00 ff ff ff ff 
0.132800 2 18ff5280x Rx d 8 35 00 00 00 00 f2 01 00 
0.133400 2 18ff5c80x Rx d 8 32 05 37 00 00 00 00 00 
0.134100 2 18ff5e80x Rx d 8 01 00 40 00 50 c3 04 00 
0.134700 2 18ff5d80x Rx d 8 00 00 b6 03 b6 03 e8 03 
0.135300 2 cf00330x Rx d 8 ff 00 ff ff ff ff ff ff 
0.135900 2 18fedf00x Rx d 8 86 c0 2b 7d 7d ff ff f0 
0.136500 2 18ff4a30x Rx d 8 ff ff 00 00 00 00 00 00 
0.137100 2 cf00300x Rx d 8 d3 ff 00 ff ff 0f 21 7d 
0.137600 2 cf00130x Rx d 8 ff ff ff 00 ff ff ff ff 
0.139500 2 1cfe9200x Rx d 8 ff 9c 4a ff ff ff 00 00 
0.142800 2 18ff5380x Rx d 8 00 00 00 00 00 00 00 00 
0.143600 2 18ff5c80x Rx d 8 32 05 37 00 00 00 00 00 
0.144200 2 18ff5d80x Rx d 8 00 00 b6 03 b6 03 e8 03 
0.144900 2 18ff4a30x Rx d 8 ff ff 00 00 00 00 00 00 
0.145600 2 cf00130x Rx d 8 ff ff ff 00 ff ff ff ff 
0.146200 2 cf00400x Rx d 8 7e e1 85 C0 C2 00 00 7d 
0.149500 2 cf00a00x Rx d 8 00 00 00 00 ff ff ff ff 
0.150100 2 18f00f00x Rx d 8 00 fb 32 5b ff ff ff ff 
0.152900 2 18ff5480x Rx d 8 00 00 00 00 00 00 00 00 
0.153600 2 18ff5c80x Rx d 8 32 05 37 00 00 00 00 00 
0.154200 2 18ff5d80x Rx d 8 00 00 b6 03 b6 03 e8 03 
0.154900 2 18ff4a30x Rx d 8 ff ff 00 00 00 00 00 00 
0.155600 2 cf00130x Rx d 8 ff ff ff 00 ff ff ff ff 
0.156200 2 18fedf00x Rx d 8 86 c0 2b 7d 7d ff ff f0 
0.156800 2 cf00300x Rx d 8 d3 ff 00 ff ff 0f 21 7d 
0.157400 2 18feee00x Rx d 8 37 ff ff ff ff ff ff ff 
0.162900 2 18ff5580x Rx d 8 00 00 00 00 00 00 00 00 
0.163600 2 18ff5c80x Rx d 8 32 05 37 00 00 00 00 00 
0.164200 2 18ff5d80x Rx d 8 00 00 b6 03 b6 03 e8 03 
0.164800 2 18fef200x Rx d 8 00 00 ff fa 00 00 fa ff 
0.165300 2 18ff2280x Rx d 8 5a 45 77 00 40 43 48 31 
0.166000 2 18ff4a30x Rx d 8 ff ff 00 00 00 00 00 00 
0.166500 2 cf00400x Rx d 8 7e e1 85 C0 C2 00 00 7d 
0.167100 2 cf00130x Rx d 8 ff ff ff 00 ff ff ff ff 
0.172900 2 18ff5680x Rx d 8 00 00 00 00 00 00 00 00 
0.173600 2 18ff5c80x Rx d 8 32 05 37 00 00 00 00 00 
0.174200 2 18ff5d80x Rx d 8 00 00 b6 03 b6 03 e8 03 
0.174900 2 18ff4a30x Rx d 8 ff ff 00 00 00 00 00 00 
0.175700 2 cf00130x Rx d 8 ff ff ff 00 ff ff ff ff 
0.176200 2 18fedf00x Rx d 8 86 c0 2b 7d 7d ff ff f0 
0.176800 2 cf00300x Rx d 8 d3 ff 00 ff ff 0f 21 7d 
0.177400 2 10fcfd00x Rx d 8 ff ff ff ff 00 00 ff ff 
0.178000 2 18fee400x Rx d 8 ff 3f ff fc ff 3f ff ff 
0.182800 2 18ff5880x Rx d 8 7c 01 74 01 00 00 00 00 
0.183400 2 18ff5c80x Rx d 8 32 05 37 00 00 00 00 00 
0.184100 2 18ff5d80x Rx d 8 00 00 b6 03 b6 03 e8 03 
0.184700 2 18fee000x Rx d 8 00 00 00 00 00 00 00 00 
0.185200 2 cf00330x Rx d 8 ff 00 ff ff ff ff ff ff 
0.185800 2 18f00100x Rx d 8 ff ff ff ff ff ff ff ff 
0.186400 2 18ff4a30x Rx d 8 ff ff 00 00 00 00 00 00 
0.187000 2 cf00400x Rx d 8 7e e1 85 C0 C2 00 00 7d 
0.187600 2 cf00130x Rx d 8 ff ff ff 00 ff ff ff ff 
0.189600 2 18f00029x Rx d 8 ff ff ff ff ff ff ff ff 
0.192900 2 18ff5980x Rx d 8 0c 00 d3 00 42 00 d3 00 
0.193600 2 18ff5c80x Rx d 8 32 05 37 00 00 00 00 00 
0.194200 2 18ff5d80x Rx d 8 00 00 b6 03 b6 03 e8 03 
0.194900 2 18ff4a30x Rx d 8 ff ff 00 00 00 00 00 00 
0.195600 2 cf00130x Rx d 8 ff ff ff 00 ff ff ff ff 
0.196200 2 18fedf00x Rx d 8 86 c0 2b 7d 7d ff ff f0 
0.196700 2 cf00300x Rx d 8 d3 ff 00 ff ff 0f 21 7d 
0.199500 2 cf00a00x Rx d 8 00 00 00 00 ff ff ff ff 
0.200100 2 18fef000x Rx d 8 ff ff ff ff ff ff ff ff 
0.200700 2 18febd00x Rx d 8 00 f0 00 00 ff ff ff ff 
0.201300 2 18f00f00x Rx d 8 00 fb 32 5b ff ff ff ff 
0.202900 2 18ff5080x Rx d 8 01 52 45 0d 00 00 00 44 
0.203600 2 18ff5c80x Rx d 8 32 05 37 00 00 00 00 00 
0.204200 2 18ff5d80x Rx d 8 00 00 b6 03 b6 03 e8 03 
0.204800 2 cfd9200x Rx d 8 f0 ff ff ff ff ff ff ff 
0.205300 2 18ff4a30x Rx d 8 ff ff 00 00 00 00 00 00 
0.206000 2 cf00130x Rx d 8 ff ff ff 00 ff ff ff ff 
0.206500 2 cf00400x Rx d 8 7e e1 85 C0 C2 00 00 7d 
0.209600 2 18fcf200x Rx d 8 fa ff ff ff ff ff ff ff 
0.212900 2 18ff5c80x Rx d 8 32 05 37 00 00 00 00 00 
0.213600 2 18ff5d80x Rx d 8 00 00 b6 03 b6 03 e8 03 
0.214200 2 18ff4a30x Rx d 8 ff ff 00 00 00 00 00 00 
0.214800 2 cf00130x Rx d 8 ff ff ff 00 ff ff ff ff 
0.215700 2 18fedf00x Rx d 8 86 c0 2b 7d 7d ff ff f0 
0.216300 2 cf00300x Rx d 8 d3 ff 00 ff ff 0f 21 7d 
0.219500 2 18fef100x Rx d 8 df 00 00 ff ff ff ff cf 
0.220100 2 18e0ff00x Rx d 8 00 ff ff ff ff ff ff ff 
0.222900 2 18ff5180x Rx d 8 50 01 44 00 05 00 00 01 
0.223600 2 18ff5c80x Rx d 8 32 05 37 00 00 00 00 00 
0.224200 2 18ff5d80x Rx d 8 00 00 b6 03 b6 03 e8 03 
0.224900 2 18ff4a30x Rx d 8 ff ff 00 00 00 00 00 00 
0.225600 2 cf00130x Rx d 8 ff ff ff 00 ff ff ff ff 
0.226200 2 cf00400x Rx d 8 7e e1 85 C0 C2 00 00 7d 
0.230700 2 18ff3281x Rx d 8 00 00 00 00 00 00 00 00 
0.231300 2 18ea0081x Rx d 8 8c fe 00 00 00 00 00 00 
0.232900 2 18ff5280x Rx d 8 35 00 00 00 00 f2 01 00 
0.233600 2 18ff5c80x Rx d 8 32 05 37 00 00 00 00 00 
0.234200 2 18ff5d80x Rx d 8 00 00 b6 03 b6 03 e8 03 
0.234900 2 cf00330x Rx d 8 ff 00 ff ff ff ff ff ff 
0.235600 2 1cfe8c00x Rx d 8 35 ff ff ff ff ff ff ff 
0.236200 2 18ff4a30x Rx d 8 ff ff 00 00 00 00 00 00 
0.236700 2 18fff700x Rx d 8 a8 fc ff ff ff ff ff ff 
0.237300 2 cf00130x Rx d 8 ff ff ff 00 ff ff ff ff 
0.237900 2 18fedf00x Rx d 8 86 c0 2b 7d 7d ff ff f0 
0.238500 2 cf00300x Rx d 8 d3 ff 00 ff ff 0f 21 7d 
0.239500 2 1cfe9200x Rx d 8 ff 9c 4a ff ff ff 00 00 
0.242900 2 18ff5380x Rx d 8 00 00 00 00 00 00 00 00 
0.243600 2 18ff5c80x Rx d 8 32 05 37 00 00 00 00 00 
0.244200 2 18ff5d80x Rx d 8 00 00 b6 03 b6 03 e8 03 
0.244900 2 18ff4a30x Rx d 8 ff ff 00 00 00 00 00 00 
0.245600 2 cf00130x Rx d 8 ff ff ff 00 ff ff ff ff 
0.246200 2 cf00400x Rx d 8 7e e1 85 C0 C2 00 00 7d 
0.249600 2 cf00a00x Rx d 8 00 00 00 00 ff ff ff ff 
0.250100 2 18fef500x Rx d 8 c9 ff ff 0a 24 ff ff ff 
0.250700 2 18f00f00x Rx d 8 00 fb 32 5b ff ff ff ff 
0.252900 2 18ff5480x Rx d 8 00 00 00 00 00 00 00 00 
0.253600 2 18ff5c80x Rx d 8 32 05 37 00 00 00 00 00 
0.254200 2 18ff5d80x Rx d 8 00 00 b6 03 b6 03 e8 03 
0.254900 2 18ff4a30x Rx d 8 ff ff 00 00 00 00 00 00 
0.255600 2 cf00130x Rx d 8 ff ff ff 00 ff ff ff ff 
0.256200 2 18fedf00x Rx d 8 86 c0 2b 7d 7d ff ff f0 
0.256800 2 cf00300x Rx d 8 d3 ff 00 ff ff 0f 21 7d 
0.262900 2 18ff5580x Rx d 8 00 00 00 00 00 00 00 00 
0.263600 2 18ff5c80x Rx d 8 32 05 37 00 00 00 00 00 
0.264200 2 18ff5d80x Rx d 8 00 00 b6 03 b6 03 e8 03 
0.264800 2 18fef200x Rx d 8 00 00 ff fa 00 00 fa ff 
0.265400 2 18ff4a30x Rx d 8 ff ff 00 00 00 00 00 00 
0.266000 2 18fea400x Rx d 8 ff ff cf 24 ff ff 20 22 
0.266500 2 cf00130x Rx d 8 ff ff ff 00 ff ff ff ff 
0.267100 2 cf00400x Rx d 8 7e e1 85 C0 C2 00 00 7d 
0.269500 2 18feef00x Rx d 8 ff ff ff 00 ff ff ff fa 
0.273000 2 18ff5680x Rx d 8 00 00 00 00 00 00 00 00 
0.273600 2 18ff5c80x Rx d 8 32 05 37 00 00 00 00 00 
0.274200 2 18ff5d80x Rx d 8 00 00 b6 03 b6 03 e8 03 
0.274900 2 18ff4a30x Rx d 8 ff ff 00 00 00 00 00 00 
0.275600 2 cf00130x Rx d 8 ff ff ff 00 ff ff ff ff 
0.276200 2 18fedf00x Rx d 8 86 c0 2b 7d 7d ff ff f0 
0.276700 2 cf00300x Rx d 8 d3 ff 00 ff ff 0f 21 7d 
0.277300 2 10fcfd00x Rx d 8 ff ff ff ff 00 00 ff ff 
0.282800 2 18ff5880x Rx d 8 83 01 84 01 00 00 00 00 
0.283400 2 18ff5c80x Rx d 8 32 05 37 00 00 00 00 00 
0.284100 2 18ff5d80x Rx d 8 00 00 b6 03 b6 03 e8 03 
0.284700 2 18fee000x Rx d 8 00 00 00 00 00 00 00 00 
0.285200 2 cf00330x Rx d 8 ff 00 ff ff ff ff ff ff 
0.285800 2 18f00100x Rx d 8 ff ff ff ff ff ff ff ff 
0.286400 2 18ff4a30x Rx d 8 ff ff 00 00 00 00 00 00 
0.287000 2 cf00400x Rx d 8 7e e1 85 C0 C2 00 00 7d 
0.287600 2 cf00130x Rx d 8 ff ff ff 00 ff ff ff ff 
0.289600 2 18fe9a00x Rx d 8 0a 24 ff ff ff ff ff ff 
0.290100 2 18f00029x Rx d 8 ff ff ff ff ff ff ff ff 
0.292900 2 18ff5980x Rx d 8 0a 00 23 01 50 00 22 01 
0.293700 2 18ff5c80x Rx d 8 32 05 37 00 00 00 00 00 
0.294300 2 18ff5d80x Rx d 8 00 00 b6 03 b6 03 e8 03 
0.294900 2 18ff4a30x Rx d 8 ff ff 00 00 00 00 00 00 
0.295600 2 cf00130x Rx d 8 ff ff ff 00 ff ff ff ff 
0.296200 2 18fedf00x Rx d 8 86 c0 2b 7d 7d ff ff f0 
0.296800 2 cf00300x Rx d 8 d3 ff 00 ff ff 0f 21 7d 
0.299500 2 cf00a00x Rx d 8 00 00 00 00 ff ff ff ff 
0.300100 2 18fef000x Rx d 8 ff ff ff ff ff ff ff ff 
0.300700 2 18fedb00x Rx d 8 ff ff 00 00 ff ff ff ff 
0.301300 2 18f00f00x Rx d 8 00 fb 32 5b ff ff ff ff 
0.302900 2 18ff5080x Rx d 8 01 52 45 0d 00 00 00 44 
0.303600 2 18ff5c80x Rx d 8 32 05 37 00 00 00 00 00 
0.304200 2 18ff5d80x Rx d 8 00 00 b6 03 b6 03 e8 03 
0.304900 2 18ff4a30x Rx d 8 ff ff 00 00 00 00 00 00 
0.305600 2 cf00130x Rx d 8 ff ff ff 00 ff ff ff ff 
0.306200 2 cf00400x Rx d 8 7e e1 85 C0 C2 00 00 7d 
0.309600 2 18fcf200x Rx d 8 fa ff ff ff ff ff ff ff 
0.310200 2 18feff00x Rx d 8 fd c1 ff ff ff ff ff ff 
0.312900 2 18ff5c80x Rx d 8 32 05 37 00 00 00 00 00 
0.313400 2 18ff5d80x Rx d 8 00 00 b6 03 b6 03 e8 03 
0.314100 2 18ff4a30x Rx d 8 ff ff 00 00 00 00 00 00 
0.314800 2 cf00130x Rx d 8 ff ff ff 00 ff ff ff ff 
0.315700 2 18fedf00x Rx d 8 86 c0 2b 7d 7d ff ff f0 
0.316300 2 cf00300x Rx d 8 d3 ff 00 ff ff 0f 21 7d 
0.316900 2 18fef600x Rx d 8 ff 00 39 32 ff ff ff ff 
0.319500 2 18fef100x Rx d 8 df 00 00 ff ff ff ff cf 
0.322900 2 18ff5180x Rx d 8 50 01 44 00 05 00 00 01 
0.323600 2 18ff5c80x Rx d 8 32 05 37 00 00 00 00 00 
0.324200 2 18ff5d80x Rx d 8 00 00 b6 03 b6 03 e8 03 
0.324800 2 18ff4a30x Rx d 8 ff ff 00 00 00 00 00 00 
0.325400 2 cf00130x Rx d 8 ff ff ff 00 ff ff ff ff 
0.326200 2 cf00400x Rx d 8 7e e1 85 C0 C2 00 00 7d 
0.332900 2 18ff5280x Rx d 8 35 00 00 00 00 f2 01 00 
0.333600 2 18ff5c80x Rx d 8 32 05 37 00 00 00 00 00 
0.334200 2 18ff5d80x Rx d 8 00 00 b6 03 b6 03 e8 03 
0.334900 2 cf00330x Rx d 8 ff 00 ff ff ff ff ff ff 
0.335700 2 18ff4a30x Rx d 8 ff ff 00 00 00 00 00 00 
0.336200 2 18fedf00x Rx d 8 86 c0 2b 7d 7d ff ff f0 
0.336800 2 cf00130x Rx d 8 ff ff ff 00 ff ff ff ff 
0.337400 2 cf00300x Rx d 8 d3 ff 00 ff ff 0f 21 7d 
0.339500 2 1cfe9200x Rx d 8 ff 9c 4a ff ff ff 00 00 
0.343000 2 18ff5380x Rx d 8 00 00 00 00 00 00 00 00 
0.343600 2 18ff5c80x Rx d 8 32 05 37 00 00 00 00 00 
0.344200 2 18ff5d80x Rx d 8 00 00 b6 03 b6 03 e8 03 
0.344900 2 18ff4a30x Rx d 8 ff ff 00 00 00 00 00 00 
0.345600 2 cf00130x Rx d 8 ff ff ff 00 ff ff ff ff 
0.346200 2 cf00400x Rx d 8 7e e1 85 C0 C2 00 00 7d 
0.349600 2 cf00a00x Rx d 8 00 00 00 00 ff ff ff ff 
0.350100 2 18f00f00x Rx d 8 00 fb 32 5b ff ff ff ff 
0.352900 2 18ff5480x Rx d 8 00 00 00 00 00 00 00 00 
0.353600 2 18ff5c80x Rx d 8 32 05 37 00 00 00 00 00 
0.354200 2 18ff5d80x Rx d 8 00 00 b6 03 b6 03 e8 03 
0.354900 2 18ff4a30x Rx d 8 ff ff 00 00 00 00 00 00 
0.355600 2 cf00130x Rx d 8 ff ff ff 00 ff ff ff ff 
0.356200 2 18fedf00x Rx d 8 86 c0 2b 7d 7d ff ff f0 
0.356800 2 cf00300x Rx d 8 d3 ff 00 ff ff 0f 21 7d 
0.362900 2 18ff5580x Rx d 8 00 00 00 00 00 00 00 00 
0.363600 2 18ff5c80x Rx d 8 32 05 37 00 00 00 00 00 
0.364200 2 18ff5d80x Rx d 8 00 00 b6 03 b6 03 e8 03 
0.364800 2 18fef200x Rx d 8 00 00 ff fa 00 00 fa ff 
0.365300 2 18ff4a30x Rx d 8 ff ff 00 00 00 00 00 00 
0.366000 2 cf00130x Rx d 8 ff ff ff 00 ff ff ff ff 
0.366600 2 cf00400x Rx d 8 7e e1 85 C0 C2 00 00 7d 
0.372900 2 18ff5680x Rx d 8 00 00 00 00 00 00 00 00 
0.373600 2 18ff5c80x Rx d 8 32 05 37 00 00 00 00 00 
0.374200 2 18ff5d80x Rx d 8 00 00 b6 03 b6 03 e8 03 
0.374900 2 18ff4a30x Rx d 8 ff ff 00 00 00 00 00 00 
0.375600 2 cf00130x Rx d 8 ff ff ff 00 ff ff ff ff 
0.376200 2 18fedf00x Rx d 8 86 c0 2b 7d 7d ff ff f0 
0.376800 2 cf00300x Rx d 8 d3 ff 00 ff ff 0f 21 7d 
0.377400 2 10fcfd00x Rx d 8 ff ff ff ff 00 00 ff ff 
0.382900 2 18ff5880x Rx d 8 75 01 74 01 00 00 00 00 
0.383600 2 18ff5c80x Rx d 8 32 05 37 00 00 00 00 00 
0.384200 2 18ff5d80x Rx d 8 00 00 b6 03 b6 03 e8 03 
0.384800 2 18fee000x Rx d 8 00 00 00 00 00 00 00 00 
0.385400 2 cf00330x Rx d 8 ff 00 ff ff ff ff ff ff 
0.386000 2 18f00100x Rx d 8 ff ff ff ff ff ff ff ff 
0.386500 2 18ff4a30x Rx d 8 ff ff 00 00 00 00 00 00 
0.387100 2 cf00400x Rx d 8 7e e1 85 C0 C2 00 00 7d 
0.387700 2 cf00130x Rx d 8 ff ff ff 00 ff ff ff ff 
0.389600 2 18f00029x Rx d 8 ff ff ff ff ff ff ff ff 
0.392900 2 18ff5980x Rx d 8 0b 00 d3 00 42 00 d3 00 
0.393600 2 18ff5c80x Rx d 8 32 05 37 00 00 00 00 00 
0.394200 2 18ff5d80x Rx d 8 00 00 b6 03 b6 03 e8 03 
0.394900 2 18ff4a30x Rx d 8 ff ff 00 00 00 00 00 00 
0.395600 2 cf00130x Rx d 8 ff ff ff 00 ff ff ff ff 
0.396200 2 18fedf00x Rx d 8 86 c0 2b 7d 7d ff ff f0 
0.396800 2 cf00300x Rx d 8 d3 ff 00 ff ff 0f 21 7d 
0.399500 2 cf00a00x Rx d 8 00 00 00 00 ff ff ff ff 
0.400100 2 18fef000x Rx d 8 ff ff ff ff ff ff ff ff 
0.400700 2 18f00f00x Rx d 8 00 fb 32 5b ff ff ff ff 
0.402900 2 18ff5080x Rx d 8 01 52 45 0d 00 00 00 44 
0.403500 2 18ff5c80x Rx d 8 32 05 37 00 00 00 00 00 
0.404100 2 18ff5d80x Rx d 8 00 00 b6 03 b6 03 e8 03 
0.404700 2 18ff4a30x Rx d 8 ff ff 00 00 00 00 00 00 
0.405400 2 cf00130x Rx d 8 ff ff ff 00 ff ff ff ff 
0.406200 2 cf00400x Rx d 8 7e e1 85 C0 C2 00 00 7d 
0.409600 2 18fcf200x Rx d 8 fa ff ff ff ff ff ff ff 
0.412900 2 18ff5c80x Rx d 8 32 05 37 00 00 00 00 00 
0.413600 2 18ff5d80x Rx d 8 00 00 b6 03 b6 03 e8 03 
0.414300 2 18ff4a30x Rx d 8 ff ff 00 00 00 00 00 00 
0.414900 2 cf00130x Rx d 8 ff ff ff 00 ff ff ff ff 
0.415700 2 18fedf00x Rx d 8 86 c0 2b 7d 7d ff ff f0 
0.416300 2 cf00300x Rx d 8 d3 ff 00 ff ff 0f 21 7d 
0.419500 2 18fef100x Rx d 8 df 00 00 ff ff ff ff cf 
0.422900 2 18ff5180x Rx d 8 50 01 44 00 05 00 00 01 
0.423600 2 18ff5c80x Rx d 8 32 05 37 00 00 00 00 00 
0.424200 2 18ff5d80x Rx d 8 00 00 b6 03 b6 03 e8 03 
0.424900 2 18ff4a30x Rx d 8 ff ff 00 00 00 00 00 00 
0.425600 2 cf00130x Rx d 8 ff ff ff 00 ff ff ff ff 
0.426200 2 cf00400x Rx d 8 7e e1 85 C0 C2 00 00 7d 
0.432500 2 18ff3a81x Rx d 8 97 3c 00 00 ff ff 73 01 
0.433000 2 18ff5280x Rx d 8 35 00 00 00 00 f2 01 00 
0.433600 2 18ff3b81x Rx d 8 00 00 00 00 00 00 00 00 
0.434200 2 18ff5c80x Rx d 8 32 05 37 00 00 00 00 00 
0.434800 2 18ff5d80x Rx d 8 00 00 b6 03 b6 03 e8 03 
0.435400 2 cf00330x Rx d 8 ff 00 ff ff ff ff ff ff 
0.436000 2 18fff700x Rx d 8 a8 fc ff ff ff ff ff ff 
0.436600 2 18ff4a30x Rx d 8 ff ff 00 00 00 00 00 00 
0.437100 2 18fedf00x Rx d 8 86 c0 2b 7d 7d ff ff f0 
0.437700 2 cf00130x Rx d 8 ff ff ff 00 ff ff ff ff 
0.438300 2 cf00300x Rx d 8 d3 ff 00 ff ff 0f 21 7d 
0.438900 2 18ecff81x Rx d 8 20 16 00 04 ff ca fe 00 
0.439600 2 1cfe9200x Rx d 8 ff 9c 4a ff ff ff 00 00 
0.440100 2 18ebff81x Rx d 8 01 ff 00 c5 f3 f3 01 61 
0.442900 2 18ff5380x Rx d 8 00 00 00 00 00 00 00 00 
0.443600 2 18ff5c80x Rx d 8 32 05 37 00 00 00 00 00 
0.444200 2 18ff5d80x Rx d 8 00 00 b6 03 b6 03 e8 03 
0.444900 2 18ff4a30x Rx d 8 ff ff 00 00 00 00 00 00 
0.445700 2 cf00130x Rx d 8 ff ff ff 00 ff ff ff ff 
0.446300 2 cf00400x Rx d 8 7e e1 85 C0 C2 00 00 7d 
0.447600 2 18ebff81x Rx d 8 02 00 0f 01 61 00 10 01 
0.448500 2 18ebff81x Rx d 8 03 61 00 00 01 e1 06 11 
0.449100 2 18ebff81x Rx d 8 04 01 ff ff ff ff ff ff 
0.449700 2 cf00a00x Rx d 8 00 00 00 00 ff ff ff ff 
0.450300 2 18ff3c81x Rx d 8 e9 02 00 00 00 00 00 00 
0.450800 2 18fdcb00x Rx d 8 fc ff ff ff ff ff ff ff 
0.451400 2 18ea0081x Rx d 8 bd fc 00 00 00 00 00 00 
0.452000 2 18f00f00x Rx d 8 00 fb 32 5b ff ff ff ff 
0.452600 2 c850030x Rx d 8 ff ff 00 ff ff ff ff ff 
0.453200 2 18ff5480x Rx d 8 00 00 00 00 00 00 00 00 
0.453800 2 18ff3281x Rx d 8 00 00 00 00 00 00 00 00 
0.454300 2 18ff5c80x Rx d 8 32 05 37 00 00 00 00 00 
0.454900 2 18ff5d80x Rx d 8 00 00 b6 03 b6 03 e8 03 
0.455600 2 18fcbd00x Rx d 8 e9 02 00 00 23 1d 00 00 
0.456200 2 18ff4a30x Rx d 8 ff ff 00 00 00 00 00 00 
0.456800 2 18fedf00x Rx d 8 86 c0 2b 7d 7d ff ff f0 
0.457300 2 cf00130x Rx d 8 ff ff ff 00 ff ff ff ff 
0.457900 2 cf00300x Rx d 8 d3 ff 00 ff ff 0f 21 7d 
0.458500 2 cfd9200x Rx d 8 f0 ff ff ff ff ff ff ff 
0.463000 2 18ff5580x Rx d 8 00 00 00 00 00 00 00 00 
0.463700 2 18ff5c80x Rx d 8 32 05 37 00 00 00 00 00 
0.464300 2 18ff5d80x Rx d 8 00 00 b6 03 b6 03 e8 03 
0.464800 2 18fef200x Rx d 8 00 00 ff fa 00 00 fa ff 
0.465400 2 18ff4a30x Rx d 8 ff ff 00 00 00 00 00 00 
0.466000 2 cf00130x Rx d 8 ff ff ff 00 ff ff ff ff 
0.466600 2 cf00400x Rx d 8 7e e1 85 C0 C2 00 00 7d 
0.472900 2 18ff5680x Rx d 8 00 00 00 00 00 00 00 00 
0.473600 2 18ff5c80x Rx d 8 32 05 37 00 00 00 00 00 
0.474200 2 18ff5d80x Rx d 8 00 00 b6 03 b6 03 e8 03 
0.474900 2 18ff4a30x Rx d 8 ff ff 00 00 00 00 00 00 
0.475700 2 cf00130x Rx d 8 ff ff ff 00 ff ff ff ff 
0.476200 2 18fedf00x Rx d 8 86 c0 2b 7d 7d ff ff f0 
0.476800 2 cf00300x Rx d 8 d3 ff 00 ff ff 0f 21 7d 
0.477400 2 18ea0081x Rx d 8 bd fc 00 00 00 00 00 00 
0.478000 2 10fcfd00x Rx d 8 ff ff ff ff 00 00 ff ff 
0.478600 2 18ff4081x Rx d 8 00 00 00 00 00 00 00 00 
0.479100 2 18ff2080x Rx d 8 31 32 33 36 35 34 00 00 
0.479700 2 18fcbd00x Rx d 8 e9 02 00 00 23 1d 00 00 
0.480300 2 18ff2e80x Rx d 8 00 00 00 00 00 00 00 00 
0.482900 2 18ff5880x Rx d 8 7c 01 84 01 00 00 00 00 
0.483600 2 18ff5c80x Rx d 8 32 05 37 00 00 00 00 00 
0.484200 2 18ff5d80x Rx d 8 00 00 b6 03 b6 03 e8 03 
0.484800 2 18fee000x Rx d 8 00 00 00 00 00 00 00 00 
0.485400 2 cf00330x Rx d 8 ff 00 ff ff ff ff ff ff 
0.486000 2 18f00100x Rx d 8 ff ff ff ff ff ff ff ff 
0.486600 2 18ff4a30x Rx d 8 ff ff 00 00 00 00 00 00 
0.487100 2 cf00400x Rx d 8 7e e1 85 C0 C2 00 00 7d 
0.487700 2 cf00130x Rx d 8 ff ff ff 00 ff ff ff ff 
0.489600 2 18f00029x Rx d 8 ff ff ff ff ff ff ff ff 
0.492900 2 18ff5980x Rx d 8 0a 00 24 01 4f 00 23 01 
0.493600 2 18ff5c80x Rx d 8 32 05 37 00 00 00 00 00 
0.494200 2 18ff5d80x Rx d 8 00 00 b6 03 b6 03 e8 03 
0.494900 2 18ff4a30x Rx d 8 ff ff 00 00 00 00 00 00 
0.495700 2 cf00130x Rx d 8 ff ff ff 00 ff ff ff ff 
0.496200 2 18fedf00x Rx d 8 86 c0 2b 7d 7d ff ff f0 
0.496800 2 cf00300x Rx d 8 d3 ff 00 ff ff 0f 21 7d 
0.499500 2 18fdb400x Rx d 8 b9 24 06 25 ff ff ff ff 
0.500100 2 cf00a00x Rx d 8 00 00 00 00 ff ff ff ff 
0.500700 2 18fef000x Rx d 8 ff ff ff ff ff ff ff ff 
0.501300 2 18f00f00x Rx d 8 00 fb 32 5b ff ff ff ff 
0.502900 2 18ff5080x Rx d 8 01 52 45 0d 00 00 00 44 
0.503600 2 18ff5c80x Rx d 8 32 05 37 00 00 00 00 00 
0.504200 2 18ff5d80x Rx d 8 00 00 b6 03 b6 03 e8 03 
0.504900 2 18ff4a30x Rx d 8 ff ff 00 00 00 00 00 00 
0.505700 2 cf00130x Rx d 8 ff ff ff 00 ff ff ff ff 
0.506200 2 cf00400x Rx d 8 7e e1 85 C0 C2 00 00 7d 
0.509600 2 18fcf200x Rx d 8 fa ff ff ff ff ff ff ff 
0.512900 2 18ff5c80x Rx d 8 32 05 37 00 00 00 00 00 
0.513600 2 18ff5d80x Rx d 8 00 00 b6 03 b6 03 e8 03 
0.514200 2 18ff4a30x Rx d 8 ff ff 00 00 00 00 00 00 
0.514900 2 cf00130x Rx d 8 ff ff ff 00 ff ff ff ff 
0.515800 2 18fedf00x Rx d 8 86 c0 2b 7d 7d ff ff f0 
0.516300 2 cf00300x Rx d 8 d3 ff 00 ff ff 0f 21 7d 
0.516900 2 18fd0900x Rx d 8 4f 56 76 00 4f 56 76 00 
0.519500 2 18fef100x Rx d 8 df 00 00 ff ff ff ff cf 
0.523000 2 18ff5180x Rx d 8 50 01 44 00 05 00 00 01 
0.523700 2 18ff4880x Rx d 8 10 00 00 00 00 00 00 00 
0.524300 2 18ff5c80x Rx d 8 32 05 37 00 00 00 00 00 
0.524800 2 18fdb300x Rx d 8 ff ff 43 24 ff ff ff ff 
0.525400 2 18ff5d80x Rx d 8 00 00 b6 03 b6 03 e8 03 
0.526000 2 18fdcb30x Rx d 8 ff 00 00 ff ff ff ff ff 
0.526600 2 cf00400x Rx d 8 7e e1 85 C0 C2 00 00 7d 
0.527200 2 18ff4a30x Rx d 8 ff ff 00 00 00 00 00 00 
0.527800 2 cf00130x Rx d 8 ff ff ff 00 ff ff ff ff 
0.532900 2 18ff5280x Rx d 8 35 00 00 00 00 f2 01 00 
0.533600 2 18ff5c80x Rx d 8 32 05 37 00 00 00 00 00 
0.534200 2 18ff5d80x Rx d 8 00 00 b6 03 b6 03 e8 03 
0.534900 2 cf00330x Rx d 8 ff 00 ff ff ff ff ff ff 
0.535600 2 18ff4a30x Rx d 8 ff ff 00 00 00 00 00 00 
0.536200 2 18fedf00x Rx d 8 86 c0 2b 7d 7d ff ff f0 
0.536800 2 cf00130x Rx d 8 ff ff ff 00 ff ff ff ff 
0.537400 2 cf00300x Rx d 8 d3 ff 00 ff ff 0f 21 7d 
0.539600 2 1cfe9200x Rx d 8 ff 9c 4a ff ff ff 00 00 
0.542900 2 18ff5380x Rx d 8 00 00 00 00 00 00 00 00 
0.543700 2 18ff5c80x Rx d 8 32 05 37 00 00 00 00 00 
0.544300 2 18ff5d80x Rx d 8 00 00 b6 03 b6 03 e8 03 
0.544900 2 18ff4a30x Rx d 8 ff ff 00 00 00 00 00 00 
0.545700 2 cf00130x Rx d 8 ff ff ff 00 ff ff ff ff 
0.546300 2 cf00400x Rx d 8 7e e1 85 C0 C2 00 00 7d 
0.549600 2 18fdb200x Rx d 8 ff ff ff ff 01 00 ff ff 
0.550200 2 cf00a00x Rx d 8 00 00 00 00 ff ff ff ff 
0.550700 2 18f00f00x Rx d 8 00 fb 32 5b ff ff ff ff 
0.552900 2 18ff5480x Rx d 8 00 00 00 00 00 00 00 00 
0.553600 2 18ff5c80x Rx d 8 32 05 37 00 00 00 00 00 
0.554200 2 18ff5d80x Rx d 8 00 00 b6 03 b6 03 e8 03 
0.554900 2 18ff4a30x Rx d 8 ff ff 00 00 00 00 00 00 
0.555600 2 cf00130x Rx d 8 ff ff ff 00 ff ff ff ff 
0.556200 2 18fedf00x Rx d 8 86 c0 2b 7d 7d ff ff f0 
0.556800 2 cf00300x Rx d 8 d3 ff 00 ff ff 0f 21 7d 
0.559600 2 18ecff00x Rx d 8 20 12 00 03 ff ca fe 00 
0.563000 2 18ff5580x Rx d 8 00 00 00 00 00 00 00 00 
0.563600 2 18ff5c80x Rx d 8 32 05 37 00 00 00 00 00 
0.564200 2 18ff5d80x Rx d 8 00 00 b6 03 b6 03 e8 03 
0.564800 2 18fef200x Rx d 8 00 00 ff fa 00 00 fa ff 
0.565400 2 18ff4a30x Rx d 8 ff ff 00 00 00 00 00 00 
0.566000 2 cf00130x Rx d 8 ff ff ff 00 ff ff ff ff 
0.566600 2 cf00400x Rx d 8 7e e1 85 C0 C2 00 00 7d 
0.569600 2 18fd8c00x Rx d 8 00 00 00 00 ff ff ff ff 
0.570200 2 18feca83x Rx d 8 ff ff c5 f3 f3 01 ff ff 
0.572900 2 18ff5680x Rx d 8 00 00 00 00 00 00 00 00 
0.573700 2 18ff5c80x Rx d 8 32 05 37 00 00 00 00 00 
0.574300 2 18ff5d80x Rx d 8 00 00 b6 03 b6 03 e8 03 
0.574900 2 18ff4a30x Rx d 8 ff ff 00 00 00 00 00 00 
0.575700 2 cf00130x Rx d 8 ff ff ff 00 ff ff ff ff 
0.576200 2 18fedf00x Rx d 8 86 c0 2b 7d 7d ff ff f0 
0.576800 2 cf00300x Rx d 8 d3 ff 00 ff ff 0f 21 7d 
0.577400 2 10fcfd00x Rx d 8 ff ff ff ff 00 00 ff ff 
0.582900 2 18ff5880x Rx d 8 75 01 75 01 00 00 00 00 
0.583600 2 18ff5c80x Rx d 8 32 05 37 00 00 00 00 00 
0.584200 2 18ff5d80x Rx d 8 00 00 b6 03 b6 03 e8 03 
0.584800 2 18fee000x Rx d 8 00 00 00 00 00 00 00 00 
0.585400 2 cf00330x Rx d 8 ff 00 ff ff ff ff ff ff 
0.586000 2 18f00100x Rx d 8 ff ff ff ff ff ff ff ff 
0.586600 2 18ff4a30x Rx d 8 ff ff 00 00 00 00 00 00 
0.587200 2 cf00400x Rx d 8 7e e1 85 C0 C2 00 00 7d 
0.587700 2 cf00130x Rx d 8 ff ff ff 00 ff ff ff ff 
0.589600 2 18fd2000x Rx d 8 b9 24 09 25 ff ff ff ff 
0.590200 2 18f00029x Rx d 8 ff ff ff ff ff ff ff ff 
0.592900 2 18ff5980x Rx d 8 0a 00 d3 00 43 00 d3 00 
0.593600 2 18ff5c80x Rx d 8 32 05 37 00 00 00 00 00 
0.594200 2 18ff5d80x Rx d 8 00 00 b6 03 b6 03 e8 03 
0.594900 2 18ff4a30x Rx d 8 ff ff 00 00 00 00 00 00 
0.595600 2 cf00130x Rx d 8 ff ff ff 00 ff ff ff ff 
0.596200 2 18fedf00x Rx d 8 86 c0 2b 7d 7d ff ff f0 
0.596700 2 cf00300x Rx d 8 d3 ff 00 ff ff 0f 21 7d 
0.599500 2 cf00a00x Rx d 8 00 00 00 00 ff ff ff ff 
0.600100 2 18fef000x Rx d 8 ff ff ff ff ff ff ff ff 
0.600700 2 18f00f00x Rx d 8 00 fb 32 5b ff ff ff ff 
0.602900 2 18ff5080x Rx d 8 01 52 45 0d 00 00 00 44 
0.603600 2 18ff5c80x Rx d 8 32 05 37 00 00 00 00 00 
0.604200 2 18ff5d80x Rx d 8 00 00 b6 03 b6 03 e8 03 
0.604900 2 18ff4a30x Rx d 8 ff ff 00 00 00 00 00 00 
0.605700 2 cf00130x Rx d 8 ff ff ff 00 ff ff ff ff 
0.606300 2 cf00400x Rx d 8 7e e1 85 C0 C2 00 00 7d 
0.609600 2 18fcf200x Rx d 8 fa ff ff ff ff ff ff ff 
0.610200 2 18ebff00x Rx d 8 01 17 ff 61 00 0f 01 e1 
0.612900 2 18ff5c80x Rx d 8 32 05 37 00 00 00 00 00 
0.613600 2 18ff5d80x Rx d 8 00 00 b6 03 b6 03 e8 03 
0.614200 2 18ff4a30x Rx d 8 ff ff 00 00 00 00 00 00 
0.614900 2 cf00130x Rx d 8 ff ff ff 00 ff ff ff ff 
0.615700 2 14fd3e00x Rx d 8 43 24 ff 29 24 ff ff ff 
0.616300 2 18fedf00x Rx d 8 86 c0 2b 7d 7d ff ff f0 
0.616900 2 cf00300x Rx d 8 d3 ff 00 ff ff 0f 21 7d 
0.619500 2 18fef100x Rx d 8 df 00 00 ff ff ff ff cf 
0.623000 2 18ff5180x Rx d 8 50 01 44 00 05 00 00 01 
0.623700 2 18ff4980x Rx d 8 00 00 00 00 00 00 00 00 
0.624300 2 18ff5c80x Rx d 8 32 05 37 00 00 00 00 00 
0.624900 2 18ff5d80x Rx d 8 00 00 b6 03 b6 03 e8 03 
0.625700 2 18ff4a30x Rx d 8 ff ff 00 00 00 00 00 00 
0.626300 2 ce00030x Rx d 8 ff ff ff ff ff f0 ff ff 
0.626900 2 cf00400x Rx d 8 7e e1 85 C0 C2 00 00 7d 
0.627400 2 cf00130x Rx d 8 ff ff ff 00 ff ff ff ff 
0.629900 2 18ff3281x Rx d 8 00 00 00 00 00 00 00 00 
0.632900 2 18ff5280x Rx d 8 35 00 00 00 00 f2 01 00 
0.633600 2 18ff5c80x Rx d 8 32 05 37 00 00 00 00 00 
0.634300 2 18ff5d80x Rx d 8 00 00 b6 03 b6 03 e8 03 
0.634900 2 cf00330x Rx d 8 ff 00 ff ff ff ff ff ff 
0.635700 2 18ff4a30x Rx d 8 ff ff 00 00 00 00 00 00 
0.636300 2 18fff700x Rx d 8 a8 fc ff ff ff ff ff ff 
0.636800 2 cf00130x Rx d 8 ff ff ff 00 ff ff ff ff 
0.637400 2 18fedf00x Rx d 8 86 c0 2b 7d 7d ff ff f0 
0.638000 2 cf00300x Rx d 8 d3 ff 00 ff ff 0f 21 7d 
0.639600 2 1cfe9200x Rx d 8 ff 9c 4a ff ff ff 00 00 
0.643000 2 18ff5380x Rx d 8 00 00 00 00 00 00 00 00 
0.643600 2 18ff5c80x Rx d 8 32 05 37 00 00 00 00 00 
0.644200 2 18ff5d80x Rx d 8 00 00 b6 03 b6 03 e8 03 
0.644900 2 18ff4a30x Rx d 8 ff ff 00 00 00 00 00 00 
0.645700 2 cf00130x Rx d 8 ff ff ff 00 ff ff ff ff 
0.646200 2 cf00400x Rx d 8 7e e1 85 C0 C2 00 00 7d 
0.649600 2 cf00a00x Rx d 8 00 00 00 00 ff ff ff ff 
0.650200 2 18f00f00x Rx d 8 00 fb 32 5b ff ff ff ff 
0.652900 2 18ff5480x Rx d 8 00 00 00 00 00 00 00 00 
0.653700 2 18ff5c80x Rx d 8 32 05 37 00 00 00 00 00 
0.654300 2 18ff5d80x Rx d 8 00 00 b6 03 b6 03 e8 03 
0.654900 2 18ff4a30x Rx d 8 ff ff 00 00 00 00 00 00 
0.655600 2 cf00130x Rx d 8 ff ff ff 00 ff ff ff ff 
0.656200 2 18fedf00x Rx d 8 86 c0 2b 7d 7d ff ff f0 
0.656800 2 cf00300x Rx d 8 d3 ff 00 ff ff 0f 21 7d 
0.662900 2 18ff5580x Rx d 8 00 00 00 00 00 00 00 00 
0.663600 2 18ff5c80x Rx d 8 32 05 37 00 00 00 00 00 
0.664200 2 18ff5d80x Rx d 8 00 00 b6 03 b6 03 e8 03 
0.664800 2 18fef200x Rx d 8 00 00 ff fa 00 00 fa ff 
0.665400 2 18ff4a30x Rx d 8 ff ff 00 00 00 00 00 00 
0.666000 2 18ebff00x Rx d 8 02 06 11 01 61 00 10 01 
0.666500 2 cf00130x Rx d 8 ff ff ff 00 ff ff ff ff 
0.667100 2 cf00400x Rx d 8 7e e1 85 C0 C2 00 00 7d 
0.673000 2 18ff5680x Rx d 8 00 00 00 00 00 00 00 00 
0.673600 2 18ff5c80x Rx d 8 32 05 37 00 00 00 00 00 
0.674200 2 18ff5d80x Rx d 8 00 00 b6 03 b6 03 e8 03 
0.674900 2 18ff4a30x Rx d 8 ff ff 00 00 00 00 00 00 
0.675700 2 cf00130x Rx d 8 ff ff ff 00 ff ff ff ff 
0.676200 2 18fedf00x Rx d 8 86 c0 2b 7d 7d ff ff f0 
0.676800 2 cf00300x Rx d 8 d3 ff 00 ff ff 0f 21 7d 
0.677400 2 10fcfd00x Rx d 8 ff ff ff ff 00 00 ff ff 
0.682900 2 18ff5880x Rx d 8 83 01 83 01 00 00 00 00 
0.683600 2 18ff5c80x Rx d 8 32 05 37 00 00 00 00 00 
0.684200 2 18ff5d80x Rx d 8 00 00 b6 03 b6 03 e8 03 
0.684800 2 18fee000x Rx d 8 00 00 00 00 00 00 00 00 
0.685400 2 cf00330x Rx d 8 ff 00 ff ff ff ff ff ff 
0.686000 2 18f00100x Rx d 8 ff ff ff ff ff ff ff ff 
0.686600 2 18ff4a30x Rx d 8 ff ff 00 00 00 00 00 00 
0.687200 2 cf00400x Rx d 8 7e e1 85 C0 C2 00 00 7d 
0.687700 2 cf00130x Rx d 8 ff ff ff 00 ff ff ff ff 
0.689600 2 18f00029x Rx d 8 ff ff ff ff ff ff ff ff 
0.692900 2 18ff5980x Rx d 8 0a 00 23 01 4f 00 22 01 
0.693600 2 18ff5c80x Rx d 8 32 05 37 00 00 00 00 00 
0.694200 2 18ff5d80x Rx d 8 00 00 b6 03 b6 03 e8 03 
0.694900 2 18ff4a30x Rx d 8 ff ff 00 00 00 00 00 00 
0.695600 2 cf00130x Rx d 8 ff ff ff 00 ff ff ff ff 
0.696200 2 18fedf00x Rx d 8 86 c0 2b 7d 7d ff ff f0 
0.696800 2 cf00300x Rx d 8 d3 ff 00 ff ff 0f 21 7d 
0.699600 2 cf00a00x Rx d 8 00 00 00 00 ff ff ff ff 
0.700200 2 18fef000x Rx d 8 ff ff ff ff ff ff ff ff 
0.700700 2 18f00f00x Rx d 8 00 fb 32 5b ff ff ff ff 
0.703000 2 18ff5080x Rx d 8 01 52 45 0d 00 00 00 44 
0.703700 2 18ff5c80x Rx d 8 32 05 37 00 00 00 00 00 
0.704300 2 18ff5d80x Rx d 8 00 00 b6 03 b6 03 e8 03 
0.704800 2 cfd9200x Rx d 8 f0 ff ff ff ff ff ff ff 
0.705400 2 18ff4a30x Rx d 8 ff ff 00 00 00 00 00 00 
0.706000 2 cf00130x Rx d 8 ff ff ff 00 ff ff ff ff 
0.706600 2 cf00400x Rx d 8 7e e1 85 C0 C2 00 00 7d 
0.709600 2 18fcf200x Rx d 8 fa ff ff ff ff ff ff ff 
0.713000 2 18ff5c80x Rx d 8 32 05 37 00 00 00 00 00 
0.713700 2 18ff5d80x Rx d 8 00 00 b6 03 b6 03 e8 03 
0.714300 2 18ff4a30x Rx d 8 ff ff 00 00 00 00 00 00 
0.714900 2 cf00130x Rx d 8 ff ff ff 00 ff ff ff ff 
0.715800 2 18fedf00x Rx d 8 86 c0 2b 7d 7d ff ff f0 
0.716400 2 cf00300x Rx d 8 d3 ff 00 ff ff 0f 21 7d 
0.719600 2 18fef100x Rx d 8 df 00 00 ff ff ff ff cf 
0.720100 2 18ebff00x Rx d 8 03 61 00 00 01 ff ff ff 
0.722900 2 18ff5180x Rx d 8 50 01 44 00 05 00 00 01 
0.723600 2 18ff5c80x Rx d 8 32 05 37 00 00 00 00 00 
0.724300 2 18ff5d80x Rx d 8 00 00 b6 03 b6 03 e8 03 
0.724900 2 18ff4a30x Rx d 8 ff ff 00 00 00 00 00 00 
0.725600 2 cf00130x Rx d 8 ff ff ff 00 ff ff ff ff 
0.726300 2 cf00400x Rx d 8 7e e1 85 C0 C2 00 00 7d 
0.733000 2 18ff5280x Rx d 8 35 00 00 00 00 f2 01 00 
0.733700 2 18ff5c80x Rx d 8 32 05 37 00 00 00 00 00 
0.734300 2 18ff5d80x Rx d 8 00 00 b6 03 b6 03 e8 03 
0.734900 2 cf00330x Rx d 8 ff 00 ff ff ff ff ff ff 
0.735700 2 18ff4a30x Rx d 8 ff ff 00 00 00 00 00 00 
0.736200 2 18fedf00x Rx d 8 86 c0 2b 7d 7d ff ff f0 
0.736800 2 cf00130x Rx d 8 ff ff ff 00 ff ff ff ff 
0.737400 2 cf00300x Rx d 8 d3 ff 00 ff ff 0f 21 7d 
0.739600 2 18fd0700x Rx d 8 17 0f 0c 3f ff f3 f3 ff 
0.740100 2 1cfe9200x Rx d 8 ff 9c 4a ff ff ff 00 00 
0.742900 2 18ff5380x Rx d 8 00 00 00 00 00 00 00 00 
0.743700 2 18ff5c80x Rx d 8 32 05 37 00 00 00 00 00 
0.744300 2 18ff5d80x Rx d 8 00 00 b6 03 b6 03 e8 03 
0.745000 2 18ff4a30x Rx d 8 ff ff 00 00 00 00 00 00 
0.745700 2 cf00130x Rx d 8 ff ff ff 00 ff ff ff ff 
0.746300 2 cf00400x Rx d 8 7e e1 85 C0 C2 00 00 7d 
0.749600 2 cf00a00x Rx d 8 00 00 00 00 ff ff ff ff 
0.750200 2 18f00f00x Rx d 8 00 fb 32 5b ff ff ff ff 
0.753000 2 18ff5480x Rx d 8 00 00 00 00 00 00 00 00 
0.753700 2 18ff5c80x Rx d 8 32 05 37 00 00 00 00 00 
0.754300 2 18ff5d80x Rx d 8 00 00 b6 03 b6 03 e8 03 
0.755000 2 18ff4a30x Rx d 8 ff ff 00 00 00 00 00 00 
0.755700 2 cf00130x Rx d 8 ff ff ff 00 ff ff ff ff 
0.756300 2 18fedf00x Rx d 8 86 c0 2b 7d 7d ff ff f0 
0.756900 2 cf00300x Rx d 8 d3 ff 00 ff ff 0f 21 7d 
0.763000 2 18ff5580x Rx d 8 00 00 00 00 00 00 00 00 
0.763700 2 18ff5c80x Rx d 8 32 05 37 00 00 00 00 00 
0.764300 2 18ff5d80x Rx d 8 00 00 b6 03 b6 03 e8 03 
0.764900 2 18fef200x Rx d 8 00 00 ff fa 00 00 fa ff 
0.765500 2 18ff4a30x Rx d 8 ff ff 00 00 00 00 00 00 
0.766100 2 cf00130x Rx d 8 ff ff ff 00 ff ff ff ff 
0.766600 2 cf00400x Rx d 8 7e e1 85 C0 C2 00 00 7d 
0.769600 2 18feef00x Rx d 8 ff ff ff 00 ff ff ff fa 
0.773000 2 18ff5680x Rx d 8 00 00 00 00 00 00 00 00 
0.773700 2 18ff5c80x Rx d 8 32 05 37 00 00 00 00 00 
0.774300 2 18ff5d80x Rx d 8 00 00 b6 03 b6 03 e8 03 
0.774900 2 18ff4a30x Rx d 8 ff ff 00 00 00 00 00 00 
0.775700 2 cf00130x Rx d 8 ff ff ff 00 ff ff ff ff 
0.776300 2 18fedf00x Rx d 8 86 c0 2b 7d 7d ff ff f0 
0.776800 2 cf00300x Rx d 8 d3 ff 00 ff ff 0f 21 7d 
0.777400 2 10fcfd00x Rx d 8 ff ff ff ff 00 00 ff ff 
0.783000 2 18ff5880x Rx d 8 75 01 75 01 00 00 00 00 
0.783700 2 18ff5c80x Rx d 8 32 05 37 00 00 00 00 00 
0.784300 2 18ff5d80x Rx d 8 00 00 b6 03 b6 03 e8 03 
0.784900 2 18fee000x Rx d 8 00 00 00 00 00 00 00 00 
0.785500 2 cf00330x Rx d 8 ff 00 ff ff ff ff ff ff 
0.786100 2 18f00100x Rx d 8 ff ff ff ff ff ff ff ff 
0.786600 2 18ff4a30x Rx d 8 ff ff 00 00 00 00 00 00 
0.787200 2 cf00400x Rx d 8 7e e1 85 C0 C2 00 00 7d 
0.787800 2 cf00130x Rx d 8 ff ff ff 00 ff ff ff ff 
0.789600 2 18f00029x Rx d 8 ff ff ff ff ff ff ff ff 
0.793000 2 18ff5980x Rx d 8 0a 00 d3 00 43 00 d3 00 
0.793700 2 18ff5c80x Rx d 8 32 05 37 00 00 00 00 00 
0.794300 2 18ff5d80x Rx d 8 00 00 b6 03 b6 03 e8 03 
0.794900 2 18ff4a30x Rx d 8 ff ff 00 00 00 00 00 00 
0.795700 2 cf00130x Rx d 8 ff ff ff 00 ff ff ff ff 
0.796200 2 18fedf00x Rx d 8 86 c0 2b 7d 7d ff ff f0 
0.796800 2 cf00300x Rx d 8 d3 ff 00 ff ff 0f 21 7d 
0.799600 2 cf00a00x Rx d 8 00 00 00 00 ff ff ff ff 
0.800200 2 18fef000x Rx d 8 ff ff ff ff ff ff ff ff 
0.800800 2 18fedb00x Rx d 8 ff ff 00 00 ff ff ff ff 
0.801300 2 18f00f00x Rx d 8 00 fb 32 5b ff ff ff ff 
0.802900 2 18ff5080x Rx d 8 01 52 45 0d 00 00 00 44 
0.803600 2 18ff5c80x Rx d 8 32 05 37 00 00 00 00 00 
0.804200 2 18ff5d80x Rx d 8 00 00 b6 03 b6 03 e8 03 
0.804900 2 18ff4a30x Rx d 8 ff ff 00 00 00 00 00 00 
0.805600 2 cf00130x Rx d 8 ff ff ff 00 ff ff ff ff 
0.806300 2 cf00400x Rx d 8 7e e1 85 C0 C2 00 00 7d 
0.809600 2 18fcf200x Rx d 8 fa ff ff ff ff ff ff ff 
0.812900 2 18ff5c80x Rx d 8 32 05 37 00 00 00 00 00 
0.813500 2 18ff5d80x Rx d 8 00 00 b6 03 b6 03 e8 03 
0.814100 2 18ff4a30x Rx d 8 ff ff 00 00 00 00 00 00 
0.814700 2 cf00130x Rx d 8 ff ff ff 00 ff ff ff ff 
0.815800 2 18fedf00x Rx d 8 86 c0 2b 7d 7d ff ff f0 
0.816400 2 cf00300x Rx d 8 d3 ff 00 ff ff 0f 21 7d 
0.816900 2 18fef600x Rx d 8 ff 00 39 32 ff ff ff ff 
0.819600 2 18fef100x Rx d 8 df 00 00 ff ff ff ff cf 
0.822900 2 18ff5180x Rx d 8 50 01 44 00 05 00 00 01 
0.823600 2 18ff5c80x Rx d 8 32 05 37 00 00 00 00 00 
0.824200 2 18ff5d80x Rx d 8 00 00 b6 03 b6 03 e8 03 
0.824900 2 18ff4a30x Rx d 8 ff ff 00 00 00 00 00 00 
0.825700 2 cf00130x Rx d 8 ff ff ff 00 ff ff ff ff 
0.826300 2 cf00400x Rx d 8 7e e1 85 C0 C2 00 00 7d 
0.829000 2 18ff3281x Rx d 8 00 00 00 00 00 00 00 00 
0.832900 2 18ff5280x Rx d 8 35 00 00 00 00 f2 01 00 
0.833600 2 18ff5c80x Rx d 8 32 05 37 00 00 00 00 00 
0.834300 2 18ff5d80x Rx d 8 00 00 b6 03 b6 03 e8 03 
0.834900 2 cf00330x Rx d 8 ff 00 ff ff ff ff ff ff 
0.835700 2 18ff4a30x Rx d 8 ff ff 00 00 00 00 00 00 
0.836300 2 18fff700x Rx d 8 a8 fc ff ff ff ff ff ff 
0.836800 2 cf00130x Rx d 8 ff ff ff 00 ff ff ff ff 
0.837400 2 18fedf00x Rx d 8 86 c0 2b 7d 7d ff ff f0 
0.838000 2 cf00300x Rx d 8 d3 ff 00 ff ff 0f 21 7d 
0.839600 2 1cfe9200x Rx d 8 ff 9c 4a ff ff ff 00 00 
0.840200 2 18ecff00x Rx d 8 20 28 00 06 ff e3 fe 00 
0.843000 2 18ff5380x Rx d 8 00 00 00 00 00 00 00 00 
0.843700 2 18ff5c80x Rx d 8 32 05 37 00 00 00 00 00 
0.844300 2 18ff5d80x Rx d 8 00 00 b6 03 b6 03 e8 03 
0.844900 2 18ff4a30x Rx d 8 ff ff 00 00 00 00 00 00 
0.845700 2 18feca80x Rx d 8 04 ff 24 f0 f1 01 ff ff 
0.846300 2 cf00400x Rx d 8 7e e1 85 C0 C2 00 00 7d 
0.846800 2 cf00130x Rx d 8 ff ff ff 00 ff ff ff ff 
0.849700 2 cf00a00x Rx d 8 00 00 00 00 ff ff ff ff 
0.850200 2 18f00f00x Rx d 8 00 fb 32 5b ff ff ff ff 
0.853000 2 18ff5480x Rx d 8 00 00 00 00 00 00 00 00 
0.853700 2 18ff5c80x Rx d 8 32 05 37 00 00 00 00 00 
0.854300 2 18ff5d80x Rx d 8 00 00 b6 03 b6 03 e8 03 
0.855000 2 18ff4a30x Rx d 8 ff ff 00 00 00 00 00 00 
0.855700 2 cf00130x Rx d 8 ff ff ff 00 ff ff ff ff 
0.856300 2 18fedf00x Rx d 8 86 c0 2b 7d 7d ff ff f0 
0.856900 2 cf00300x Rx d 8 d3 ff 00 ff ff 0f 21 7d 
0.863000 2 18ff5580x Rx d 8 00 00 00 00 00 00 00 00 
0.863700 2 18ff5c80x Rx d 8 32 05 37 00 00 00 00 00 
0.864300 2 18ff5d80x Rx d 8 00 00 b6 03 b6 03 e8 03 
0.864900 2 18fef200x Rx d 8 00 00 ff fa 00 00 fa ff 
0.865400 2 18ff4a30x Rx d 8 ff ff 00 00 00 00 00 00 
0.866100 2 cf00130x Rx d 8 ff ff ff 00 ff ff ff ff 
0.866600 2 cf00400x Rx d 8 7e e1 85 C0 C2 00 00 7d 
0.873000 2 18ff5680x Rx d 8 00 00 00 00 00 00 00 00 
0.873700 2 18ff5c80x Rx d 8 32 05 37 00 00 00 00 00 
0.874300 2 18ff5d80x Rx d 8 00 00 b6 03 b6 03 e8 03 
0.875000 2 18ff4a30x Rx d 8 ff ff 00 00 00 00 00 00 
0.875700 2 cf00130x Rx d 8 ff ff ff 00 ff ff ff ff 
0.876300 2 18fedf00x Rx d 8 86 c0 2b 7d 7d ff ff f0 
0.876900 2 cf00300x Rx d 8 d3 ff 00 ff ff 0f 21 7d 
0.877500 2 10fcfd00x Rx d 8 ff ff ff ff 00 00 ff ff 
0.883000 2 18ff5880x Rx d 8 83 01 83 01 00 00 00 00 
0.883700 2 18ff5c80x Rx d 8 32 05 37 00 00 00 00 00 
0.884300 2 18ff5d80x Rx d 8 00 00 b6 03 b6 03 e8 03 
0.884900 2 18fee000x Rx d 8 00 00 00 00 00 00 00 00 
0.885500 2 cf00330x Rx d 8 ff 00 ff ff ff ff ff ff 
0.886100 2 18f00100x Rx d 8 ff ff ff ff ff ff ff ff 
0.886600 2 18ff4a30x Rx d 8 ff ff 00 00 00 00 00 00 
0.887200 2 cf00400x Rx d 8 7e e1 85 C0 C2 00 00 7d 
0.887800 2 cf00130x Rx d 8 ff ff ff 00 ff ff ff ff 
0.889700 2 18f00029x Rx d 8 ff ff ff ff ff ff ff ff 
0.890200 2 18ebff00x Rx d 8 01 20 1c 86 40 1f 87 20 
0.893000 2 18ff5980x Rx d 8 0a 00 21 01 4f 00 22 01 
0.893700 2 18ff5c80x Rx d 8 32 05 37 00 00 00 00 00 
0.894300 2 18ff5d80x Rx d 8 00 00 b6 03 b6 03 e8 03 
0.894900 2 18ff4a30x Rx d 8 ff ff 00 00 00 00 00 00 
0.895700 2 cf00130x Rx d 8 ff ff ff 00 ff ff ff ff 
0.896300 2 18fedf00x Rx d 8 86 c0 2b 7d 7d ff ff f0 
0.896800 2 cf00300x Rx d 8 d3 ff 00 ff ff 0f 21 7d 
0.898300 2 18ea4b00x Rx d 3 e6 fe 00 
0.899600 2 cf00a00x Rx d 8 00 00 00 00 ff ff ff ff 
0.900200 2 18fef000x Rx d 8 ff ff ff ff ff ff ff ff 
0.900800 2 18f00f00x Rx d 8 00 fb 32 5b ff ff ff ff 
0.903000 2 18ff5080x Rx d 8 01 52 45 0d 00 00 00 44 
0.903700 2 18ff5c80x Rx d 8 32 05 37 00 00 00 00 00 
0.904300 2 18ff5d80x Rx d 8 00 00 b6 03 b6 03 e8 03 
0.904900 2 18ff4a30x Rx d 8 ff ff 00 00 00 00 00 00 
0.905700 2 cf00130x Rx d 8 ff ff ff 00 ff ff ff ff 
0.906300 2 cf00400x Rx d 8 7e e1 85 C0 C2 00 00 7d 
0.909700 2 18fcf200x Rx d 8 fa ff ff ff ff ff ff ff 
0.912900 2 18ff5c80x Rx d 8 32 05 37 00 00 00 00 00 
0.913600 2 18ff5d80x Rx d 8 00 00 b6 03 b6 03 e8 03 
0.914300 2 18ff4a30x Rx d 8 ff ff 00 00 00 00 00 00 
0.914900 2 cf00130x Rx d 8 ff ff ff 00 ff ff ff ff 
0.915800 2 18fedf00x Rx d 8 86 c0 2b 7d 7d ff ff f0 
0.916400 2 cf00300x Rx d 8 d3 ff 00 ff ff 0f 21 7d 
0.919600 2 18fef100x Rx d 8 df 00 00 ff ff ff ff cf 
0.923000 2 18ff5180x Rx d 8 50 01 44 00 05 00 00 01 
0.923700 2 18ff5c80x Rx d 8 32 05 37 00 00 00 00 00 
0.924300 2 18ff5d80x Rx d 8 00 00 b6 03 b6 03 e8 03 
0.924900 2 18ff4a30x Rx d 8 ff ff 00 00 00 00 00 00 
0.925700 2 cf00130x Rx d 8 ff ff ff 00 ff ff ff ff 
0.926300 2 cf00400x Rx d 8 7e e1 85 C0 C2 00 00 7d 
0.929600 2 18fd7c00x Rx d 8 e0 83 01 04 c3 1f 03 ff 
0.933000 2 18ff5280x Rx d 8 35 00 00 00 00 f4 01 00 
0.933700 2 18ff5c80x Rx d 8 32 05 37 00 00 00 00 00 
0.934300 2 18ff5d80x Rx d 8 00 00 b6 03 b6 03 e8 03 
0.934900 2 cf00330x Rx d 8 ff 00 ff ff ff ff ff ff 
0.935700 2 18ff4a30x Rx d 8 ff ff 00 00 00 00 00 00 
0.936300 2 18fedf00x Rx d 8 86 c0 2b 7d 7d ff ff f0 
0.936900 2 cf00130x Rx d 8 ff ff ff 00 ff ff ff ff 
0.937400 2 cf00300x Rx d 8 d3 ff 00 ff ff 0f 21 7d 
0.939600 2 1cfe9200x Rx d 8 ff 9c 4a ff ff ff 00 00 
0.943000 2 18ff5380x Rx d 8 00 00 00 00 00 00 00 00 
0.943700 2 18ff5c80x Rx d 8 32 05 37 00 00 00 00 00 
0.944300 2 18ff5d80x Rx d 8 00 00 b6 03 b6 03 e8 03 
0.944900 2 18ebff00x Rx d 8 02 1c 86 40 1f 87 40 1f 
0.945500 2 18ff4a30x Rx d 8 ff ff 00 00 00 00 00 00 
0.946100 2 cf00130x Rx d 8 ff ff ff 00 ff ff ff ff 
0.946700 2 cf00400x Rx d 8 7e e1 85 C0 C2 00 00 7d 
0.949700 2 cf00a00x Rx d 8 00 00 00 00 ff ff ff ff 
0.950300 2 18fdcb00x Rx d 8 fc ff ff ff ff ff ff ff 
0.950800 2 18f00f00x Rx d 8 00 fb 32 5b ff ff ff ff 
0.953000 2 18ff5480x Rx d 8 00 00 00 00 00 00 00 00 
0.953700 2 18ff5c80x Rx d 8 32 05 37 00 00 00 00 00 
0.954300 2 18ff5d80x Rx d 8 00 00 b6 03 b6 03 e8 03 
0.955000 2 18ff4a30x Rx d 8 ff ff 00 00 00 00 00 00 
0.955700 2 cf00130x Rx d 8 ff ff ff 00 ff ff ff ff 
0.956300 2 18fedf00x Rx d 8 86 c0 2b 7d 7d ff ff f0 
0.956900 2 cf00300x Rx d 8 d3 ff 00 ff ff 0f 21 7d 
0.957500 2 cfd9200x Rx d 8 f0 ff ff ff ff ff ff ff 
0.958000 2 18ff6f81x Rx d 8 71 6f 39 37 35 ff ff ff 
0.963000 2 18ff5580x Rx d 8 00 00 00 00 00 00 00 00 
0.963700 2 18ff5c80x Rx d 8 32 05 37 00 00 00 00 00 
0.964300 2 18ff5d80x Rx d 8 00 00 b6 03 b6 03 e8 03 
0.964900 2 18fef200x Rx d 8 00 00 ff fa 00 00 fa ff 
0.965500 2 18ff4a30x Rx d 8 ff ff 00 00 00 00 00 00 
0.966100 2 cf00130x Rx d 8 ff ff ff 00 ff ff ff ff 
0.966700 2 cf00400x Rx d 8 7e e1 85 C0 C2 00 00 7d 
0.973000 2 18ff5680x Rx d 8 00 00 00 00 00 00 00 00 
0.973800 2 18ff5c80x Rx d 8 32 05 37 00 00 00 00 00 
0.974300 2 18ff5d80x Rx d 8 00 00 b6 03 b6 03 e8 03 
0.975000 2 18ff4a30x Rx d 8 ff ff 00 00 00 00 00 00 
0.975700 2 cf00130x Rx d 8 ff ff ff 00 ff ff ff ff 
0.976300 2 18fef700x Rx d 8 ff ff ff ff f0 01 ff ff 
0.976900 2 18fedf00x Rx d 8 86 c0 2b 7d 7d ff ff f0 
0.977500 2 cf00300x Rx d 8 d3 ff 00 ff ff 0f 21 7d 
0.978100 2 10fcfd00x Rx d 8 ff ff ff ff 00 00 ff ff 
0.983000 2 18ff5880x Rx d 8 75 01 74 01 00 00 00 00 
0.983700 2 18ff5c80x Rx d 8 32 05 37 00 00 00 00 00 
0.984300 2 18ff5d80x Rx d 8 00 00 b6 03 b6 03 e8 03 
0.984900 2 18fee000x Rx d 8 00 00 00 00 00 00 00 00 
0.985500 2 cf00330x Rx d 8 ff 00 ff ff ff ff ff ff 
0.986100 2 18f00100x Rx d 8 ff ff ff ff ff ff ff ff 
0.986700 2 18ff4a30x Rx d 8 ff ff 00 00 00 00 00 00 
0.987200 2 cf00400x Rx d 8 7e e1 85 C0 C2 00 00 7d 
0.987800 2 cf00130x Rx d 8 ff ff ff 00 ff ff ff ff 
0.989700 2 18f00029x Rx d 8 ff ff ff ff ff ff ff ff 
0.993000 2 18ff5980x Rx d 8 0a 00 d2 00 42 00 d3 00 
0.993700 2 18ff5c80x Rx d 8 32 05 37 00 00 00 00 00 
0.994300 2 18ff5d80x Rx d 8 00 00 b6 03 b6 03 e8 03 
0.994900 2 18ff4a30x Rx d 8 ff ff 00 00 00 00 00 00 
0.995500 2 cf00130x Rx d 8 ff ff ff 00 ff ff ff ff 
0.996100 2 18fedf00x Rx d 8 86 c0 2b 7d 7d ff ff f0 
0.996700 2 cf00300x Rx d 8 d3 ff 00 ff ff 0f 21 7d 
0.999600 2 18fdb400x Rx d 8 b9 24 06 25 ff ff ff ff 
1.000200 2 cf00a00x Rx d 8 00 00 00 00 ff ff ff ff 
1.000800 2 18fef000x Rx d 8 ff ff ff ff ff ff ff ff 
1.001300 2 18f00f00x Rx d 8 00 fb 32 5b ff ff ff ff 
1.001900 2 18ebff00x Rx d 8 03 87 cf 20 ff ff 6c 07 
1.003000 2 18ff5080x Rx d 8 01 52 45 0d 00 00 00 44 
1.003700 2 18ff5c80x Rx d 8 32 05 37 00 00 00 00 00 
1.004300 2 18ff5d80x Rx d 8 00 00 b6 03 b6 03 e8 03 
1.005000 2 18ff4a30x Rx d 8 ff ff 00 00 00 00 00 00 
1.005700 2 cf00130x Rx d 8 ff ff ff 00 ff ff ff ff 
1.006300 2 cf00400x Rx d 8 7e e1 85 C0 C2 00 00 7d 
1.009700 2 18fcf200x Rx d 8 fa ff ff ff ff ff ff ff 
1.013000 2 18fefc80x Rx d 8 00 06 00 00 00 00 00 00 
1.013800 2 18ff5c80x Rx d 8 32 05 37 00 00 00 00 00 
1.014300 2 18ff5d80x Rx d 8 00 00 b6 03 b6 03 e8 03 
1.015000 2 18ff4a30x Rx d 8 ff ff 00 00 00 00 00 00 
1.015700 2 cf00130x Rx d 8 ff ff ff 00 ff ff ff ff 
1.016300 2 18fedf00x Rx d 8 86 c0 2b 7d 7d ff ff f0 
1.016900 2 cf00300x Rx d 8 d3 ff 00 ff ff 0f 21 7d 
1.019600 2 18fe5600x Rx d 8 1a 35 ff ff ff ff 00 ff 
1.020200 2 18fef100x Rx d 8 df 00 00 ff ff ff ff cf 
1.023000 2 18ff5180x Rx d 8 50 01 44 00 05 00 00 01 
1.023700 2 18ff4880x Rx d 8 10 00 00 00 00 00 00 00 
1.024300 2 18ff5c80x Rx d 8 32 05 37 00 00 00 00 00 
1.024900 2 18fdb300x Rx d 8 ff ff 43 24 ff ff ff ff 
1.025500 2 18ff5d80x Rx d 8 00 00 b6 03 b6 03 e8 03 
1.026100 2 18fdcb30x Rx d 8 ff 00 00 ff ff ff ff ff 
1.026600 2 cf00400x Rx d 8 7e e1 85 C0 C2 00 00 7d 
1.027200 2 18ff4a30x Rx d 8 ff ff 00 00 00 00 00 00 
1.027900 2 cf00130x Rx d 8 ff ff ff 00 ff ff ff ff 
1.029500 2 18ff3281x Rx d 8 00 00 00 00 00 00 00 00 
1.033000 2 18ff5280x Rx d 8 35 00 00 00 00 f2 01 00 
1.033700 2 18ff5c80x Rx d 8 32 05 37 00 00 00 00 00 
1.034300 2 18ff5d80x Rx d 8 00 00 b6 03 b6 03 e8 03 
1.035000 2 cf00330x Rx d 8 ff 00 ff ff ff ff ff ff 
1.035700 2 18ff4a30x Rx d 8 ff ff 00 00 00 00 00 00 
1.036300 2 18fff700x Rx d 8 a8 fc ff ff ff ff ff ff 
1.036900 2 cf00130x Rx d 8 ff ff ff 00 ff ff ff ff 
1.037400 2 18fedf00x Rx d 8 86 c0 2b 7d 7d ff ff f0 
1.038000 2 cf00300x Rx d 8 d3 ff 00 ff ff 0f 21 7d 
1.039600 2 18fd9b00x Rx d 8 ff 88 ff ff ff f3 ff ff 
1.040200 2 1cfe9200x Rx d 8 ff 9c 4a ff ff ff 00 00 
1.043000 2 18ff5380x Rx d 8 00 00 00 00 00 00 00 00 
1.043700 2 18ff5c80x Rx d 8 32 05 37 00 00 00 00 00 
1.044300 2 18ff5d80x Rx d 8 00 00 b6 03 b6 03 e8 03 
1.044900 2 18ff4a30x Rx d 8 ff ff 00 00 00 00 00 00 
1.045700 2 cf00130x Rx d 8 ff ff ff 00 ff ff ff ff 
1.046300 2 cf00400x Rx d 8 7e e1 85 C0 C2 00 00 7d 
1.049600 2 18fdb200x Rx d 8 ff ff ff ff 01 00 ff ff 
1.050200 2 cf00a00x Rx d 8 00 00 00 00 ff ff ff ff 
1.050800 2 18f00f00x Rx d 8 00 fb 32 5b ff ff ff ff 
1.053000 2 18ff5480x Rx d 8 00 00 00 00 00 00 00 00 
1.053700 2 18ff5c80x Rx d 8 32 05 37 00 00 00 00 00 
1.054300 2 18ff5d80x Rx d 8 00 00 b6 03 b6 03 e8 03 
1.055000 2 18ff4a30x Rx d 8 ff ff 00 00 00 00 00 00 
1.055700 2 cf00130x Rx d 8 ff ff ff 00 ff ff ff ff 
1.056300 2 18fedf00x Rx d 8 86 c0 2b 7d 7d ff ff f0 
1.056800 2 cf00300x Rx d 8 d3 ff 00 ff ff 0f 21 7d 
1.057400 2 18ebff00x Rx d 8 04 00 00 3c 46 69 7d 87 
1.063000 2 18ff5580x Rx d 8 00 00 00 00 00 00 00 00 
1.063700 2 18ff5c80x Rx d 8 32 05 37 00 00 00 00 00 
1.064300 2 18ff5d80x Rx d 8 00 00 b6 03 b6 03 e8 03 
1.064900 2 18fef200x Rx d 8 00 00 ff fa 00 00 fa ff 
1.065500 2 18ff4a30x Rx d 8 ff ff 00 00 00 00 00 00 
1.066100 2 cf00130x Rx d 8 ff ff ff 00 ff ff ff ff 
1.066700 2 cf00400x Rx d 8 7e e1 85 C0 C2 00 00 7d 
1.069700 2 18fd8c00x Rx d 8 00 00 00 00 ff ff ff ff 
1.073000 2 18ff5680x Rx d 8 00 00 00 00 00 00 00 00 
